Open On-Chip Debugger 0.12.0
Licensed under GNU GPL v2
For bug reports, read
	http://openocd.org/doc/doxygen/bugs.html
Debug: 3 1 command.c:155 script_debug(): command - ocd_find interface/stlink.cfg
Debug: 4 1 configuration.c:88 find_file(): found /usr/bin/../share/openocd/scripts/interface/stlink.cfg
Debug: 5 1 command.c:155 script_debug(): command - adapter driver hla
Debug: 6 1 command.c:155 script_debug(): command - hla_layout stlink
Debug: 7 1 hla_interface.c:230 hl_interface_handle_layout_command(): hl_interface_handle_layout_command
Debug: 8 1 command.c:155 script_debug(): command - hla_device_desc ST-LINK
Debug: 9 1 hla_interface.c:217 hl_interface_handle_device_desc_command(): hl_interface_handle_device_desc_command
Debug: 10 1 command.c:155 script_debug(): command - hla_vid_pid 0x0483 0x3744 0x0483 0x3748 0x0483 0x374b 0x0483 0x374d 0x0483 0x374e 0x0483 0x374f 0x0483 0x3752 0x0483 0x3753 0x0483 0x3754
Debug: 11 1 command.c:155 script_debug(): command - ocd_find target/stm32f3x.cfg
Debug: 12 1 configuration.c:88 find_file(): found /usr/bin/../share/openocd/scripts/target/stm32f3x.cfg
Debug: 13 1 command.c:155 script_debug(): command - ocd_find target/swj-dp.tcl
Debug: 14 1 configuration.c:88 find_file(): found /usr/bin/../share/openocd/scripts/target/swj-dp.tcl
Debug: 15 1 command.c:155 script_debug(): command - transport select
Info : 16 1 transport.c:265 jim_transport_select(): auto-selecting first available session transport "hla_swd". To override use 'transport select <transport>'.
Debug: 17 1 hla_transport.c:191 hl_swd_transport_select(): hl_swd_transport_select
Debug: 18 1 command.c:155 script_debug(): command - ocd_find mem_helper.tcl
Debug: 19 1 configuration.c:88 find_file(): found /usr/bin/../share/openocd/scripts/mem_helper.tcl
Debug: 20 1 command.c:155 script_debug(): command - add_usage_text mrw address
Debug: 21 1 command.c:155 script_debug(): command - add_help_text mrw Returns value of word in memory.
Debug: 22 1 command.c:155 script_debug(): command - add_usage_text mrh address
Debug: 23 1 command.c:155 script_debug(): command - add_help_text mrh Returns value of halfword in memory.
Debug: 24 1 command.c:155 script_debug(): command - add_usage_text mrb address
Debug: 25 1 command.c:155 script_debug(): command - add_help_text mrb Returns value of byte in memory.
Debug: 26 1 command.c:155 script_debug(): command - add_usage_text mmw address setbits clearbits
Debug: 27 1 command.c:155 script_debug(): command - add_help_text mmw Modify word in memory. new_val = (old_val & ~clearbits) | setbits;
Debug: 28 1 command.c:155 script_debug(): command - adapter speed 1000
Debug: 29 1 adapter.c:251 adapter_config_khz(): handle adapter khz
Debug: 30 1 adapter.c:215 adapter_khz_to_speed(): convert khz to adapter specific speed value
Debug: 31 1 adapter.c:215 adapter_khz_to_speed(): convert khz to adapter specific speed value
Debug: 32 1 command.c:155 script_debug(): command - adapter srst delay 100
Debug: 33 1 command.c:155 script_debug(): command - transport select
Debug: 34 1 command.c:155 script_debug(): command - transport select
Debug: 35 1 command.c:155 script_debug(): command - transport select
Debug: 36 1 command.c:155 script_debug(): command - transport select
Debug: 37 1 command.c:155 script_debug(): command - swd newdap stm32f3x cpu -irlen 4 -ircapture 0x1 -irmask 0xf -expected-id 0x2ba01477
Debug: 38 1 hla_tcl.c:101 jim_hl_newtap_cmd(): Creating New Tap, Chip: stm32f3x, Tap: cpu, Dotted: stm32f3x.cpu, 8 params
Debug: 39 1 hla_tcl.c:112 jim_hl_newtap_cmd(): Processing option: -irlen
Debug: 40 1 hla_tcl.c:112 jim_hl_newtap_cmd(): Processing option: -ircapture
Debug: 41 1 hla_tcl.c:112 jim_hl_newtap_cmd(): Processing option: -irmask
Debug: 42 1 hla_tcl.c:112 jim_hl_newtap_cmd(): Processing option: -expected-id
Debug: 43 1 core.c:1474 jtag_tap_init(): Created Tap: stm32f3x.cpu @ abs position 0, irlen 0, capture: 0x0 mask: 0x0
Debug: 44 1 command.c:155 script_debug(): command - dap create stm32f3x.dap -chain-position stm32f3x.cpu
Debug: 45 1 command.c:155 script_debug(): command - transport select
Debug: 46 1 command.c:155 script_debug(): command - target create stm32f3x.cpu cortex_m -endian little -dap stm32f3x.dap
Info : 47 1 target.c:6205 target_create(): The selected transport took over low-level target control. The results might differ compared to plain JTAG/SWD
Debug: 48 1 hla_target.c:193 adapter_target_create(): adapter_target_create
Debug: 49 1 hla_target.c:163 adapter_init_arch_info(): adapter_init_arch_info
Debug: 50 1 command.c:289 register_command(): command 'rtt' is already registered
Debug: 51 1 command.c:289 register_command(): command 'tpiu' is already registered
Debug: 52 1 command.c:155 script_debug(): command - stm32f3x.cpu configure -work-area-phys 0x20000000 -work-area-size 0x4000 -work-area-backup 0
Debug: 53 1 target.c:2199 target_free_all_working_areas_restore(): freeing all working areas
Debug: 54 1 target.c:2199 target_free_all_working_areas_restore(): freeing all working areas
Debug: 55 1 target.c:2199 target_free_all_working_areas_restore(): freeing all working areas
Debug: 56 1 command.c:155 script_debug(): command - flash bank stm32f3x.flash stm32f1x 0 0 0 0 stm32f3x.cpu
Debug: 57 1 tcl.c:1305 handle_flash_bank_command(): 'stm32f1x' driver usage field missing
Debug: 58 1 command.c:155 script_debug(): command - reset_config srst_nogate
Debug: 59 1 command.c:155 script_debug(): command - transport select
Debug: 60 1 command.c:155 script_debug(): command - stm32f3x.cpu configure -event examine-end  stm32f3x_default_examine_end 
Debug: 61 1 command.c:155 script_debug(): command - stm32f3x.cpu configure -event reset-start  stm32f3x_default_reset_start 
Debug: 62 1 command.c:155 script_debug(): command - stm32f3x.cpu configure -event reset-init  stm32f3x_default_reset_init 
Debug: 63 1 command.c:155 script_debug(): command - tpiu create stm32f3x.tpiu -dap stm32f3x.dap -ap-num 0 -baseaddr 0xE0040000
Debug: 64 1 command.c:155 script_debug(): command - stm32f3x.tpiu configure -event pre-enable _proc_pre_enable_stm32f3x.tpiu stm32f3x.cpu
Info : 65 1 server.c:297 add_service(): Listening on port 6666 for tcl connections
Info : 66 1 server.c:297 add_service(): Listening on port 4444 for telnet connections
Debug: 67 1 command.c:155 script_debug(): command - init
Debug: 68 1 command.c:155 script_debug(): command - target init
Debug: 69 1 command.c:155 script_debug(): command - target names
Debug: 70 1 command.c:155 script_debug(): command - stm32f3x.cpu cget -event gdb-flash-erase-start
Debug: 71 1 command.c:155 script_debug(): command - stm32f3x.cpu configure -event gdb-flash-erase-start reset init
Debug: 72 1 command.c:155 script_debug(): command - stm32f3x.cpu cget -event gdb-flash-write-end
Debug: 73 1 command.c:155 script_debug(): command - stm32f3x.cpu configure -event gdb-flash-write-end reset halt
Debug: 74 1 command.c:155 script_debug(): command - stm32f3x.cpu cget -event gdb-attach
Debug: 75 1 command.c:155 script_debug(): command - stm32f3x.cpu configure -event gdb-attach halt 1000
Debug: 76 1 target.c:1657 handle_target_init_command(): Initializing targets...
Debug: 77 1 hla_target.c:183 adapter_init_target(): adapter_init_target
Debug: 78 1 semihosting_common.c:109 semihosting_common_init():  
Debug: 79 1 hla_interface.c:111 hl_interface_init(): hl_interface_init
Debug: 80 1 hla_layout.c:84 hl_layout_init(): hl_layout_init
Debug: 81 1 adapter.c:215 adapter_khz_to_speed(): convert khz to adapter specific speed value
Debug: 82 1 adapter.c:219 adapter_khz_to_speed(): have adapter set up
Debug: 83 2 adapter.c:215 adapter_khz_to_speed(): convert khz to adapter specific speed value
Debug: 84 2 adapter.c:219 adapter_khz_to_speed(): have adapter set up
Info : 85 2 adapter.c:179 adapter_init(): clock speed 1000 kHz
Debug: 86 2 openocd.c:134 handle_init_command(): Debug Adapter init complete
Debug: 87 2 command.c:155 script_debug(): command - transport init
Debug: 88 2 transport.c:219 handle_transport_init(): handle_transport_init
Debug: 89 2 hla_transport.c:143 hl_transport_init(): hl_transport_init
Debug: 90 2 hla_transport.c:160 hl_transport_init(): current transport hla_swd
Debug: 91 2 hla_interface.c:44 hl_interface_open(): hl_interface_open
Debug: 92 2 hla_layout.c:29 hl_layout_open(): hl_layout_open
Debug: 93 2 stlink_usb.c:3693 stlink_open(): stlink_open
Debug: 94 2 stlink_usb.c:3705 stlink_open(): transport: 4 vid: 0x0483 pid: 0x3744 serial: 
Debug: 95 2 stlink_usb.c:3705 stlink_open(): transport: 4 vid: 0x0483 pid: 0x3748 serial: 
Debug: 96 2 stlink_usb.c:3705 stlink_open(): transport: 4 vid: 0x0483 pid: 0x374b serial: 
Debug: 97 2 stlink_usb.c:3705 stlink_open(): transport: 4 vid: 0x0483 pid: 0x374d serial: 
Debug: 98 2 stlink_usb.c:3705 stlink_open(): transport: 4 vid: 0x0483 pid: 0x374e serial: 
Debug: 99 2 stlink_usb.c:3705 stlink_open(): transport: 4 vid: 0x0483 pid: 0x374f serial: 
Debug: 100 2 stlink_usb.c:3705 stlink_open(): transport: 4 vid: 0x0483 pid: 0x3752 serial: 
Debug: 101 2 stlink_usb.c:3705 stlink_open(): transport: 4 vid: 0x0483 pid: 0x3753 serial: 
Debug: 102 2 stlink_usb.c:3705 stlink_open(): transport: 4 vid: 0x0483 pid: 0x3754 serial: 
Info : 103 15 stlink_usb.c:1434 stlink_usb_version(): STLINK V2J37M26 (API v2) VID:PID 0483:374B
Debug: 104 15 stlink_usb.c:1659 stlink_usb_exit_mode(): MODE: 0x01
Info : 105 15 stlink_usb.c:1470 stlink_usb_check_voltage(): Target voltage: 2.911639
Debug: 106 15 stlink_usb.c:1727 stlink_usb_init_mode(): MODE: 0x01
Debug: 107 15 stlink_usb.c:3093 stlink_dump_speed_map(): Supported clock speeds are:
Debug: 108 15 stlink_usb.c:3096 stlink_dump_speed_map(): 4000 kHz
Debug: 109 15 stlink_usb.c:3096 stlink_dump_speed_map(): 1800 kHz
Debug: 110 15 stlink_usb.c:3096 stlink_dump_speed_map(): 1200 kHz
Debug: 111 15 stlink_usb.c:3096 stlink_dump_speed_map(): 950 kHz
Debug: 112 15 stlink_usb.c:3096 stlink_dump_speed_map(): 480 kHz
Debug: 113 15 stlink_usb.c:3096 stlink_dump_speed_map(): 240 kHz
Debug: 114 15 stlink_usb.c:3096 stlink_dump_speed_map(): 125 kHz
Debug: 115 15 stlink_usb.c:3096 stlink_dump_speed_map(): 100 kHz
Debug: 116 15 stlink_usb.c:3096 stlink_dump_speed_map(): 50 kHz
Debug: 117 15 stlink_usb.c:3096 stlink_dump_speed_map(): 25 kHz
Debug: 118 15 stlink_usb.c:3096 stlink_dump_speed_map(): 15 kHz
Debug: 119 15 stlink_usb.c:3096 stlink_dump_speed_map(): 5 kHz
Debug: 120 17 stlink_usb.c:1787 stlink_usb_init_mode(): MODE: 0x02
Debug: 121 17 stlink_usb.c:4088 stlink_usb_open_ap(): AP 0 enabled
Debug: 122 18 stlink_usb.c:3781 stlink_open(): Using TAR autoincrement: 4096
Debug: 123 18 core.c:640 adapter_system_reset(): SRST line released
Debug: 124 120 hla_interface.c:69 hl_interface_init_target(): hl_interface_init_target
Debug: 125 120 stlink_usb.c:2020 stlink_usb_idcode(): IDCODE: 0x2BA01477
Debug: 126 120 command.c:155 script_debug(): command - dap init
Debug: 127 120 arm_dap.c:97 dap_init_all(): Initializing all DAPs ...
Debug: 128 120 openocd.c:151 handle_init_command(): Examining targets...
Debug: 129 120 target.c:1843 target_call_event_callbacks(): target event 19 (examine-start) for core stm32f3x.cpu
Debug: 130 120 hla_target.c:601 adapter_read_memory(): adapter_read_memory 0xe000ed00 4 1
Debug: 131 123 target.c:2628 target_read_u32(): address: 0xe000ed00, value: 0x410fc241
Info : 132 123 cortex_m.c:2369 cortex_m_examine(): [stm32f3x.cpu] Cortex-M4 r0p1 processor detected
Debug: 133 123 cortex_m.c:2384 cortex_m_examine(): [stm32f3x.cpu] cpuid: 0x410fc241
Debug: 134 123 hla_target.c:601 adapter_read_memory(): adapter_read_memory 0xe000ef40 4 1
Debug: 135 123 target.c:2628 target_read_u32(): address: 0xe000ef40, value: 0x10110021
Debug: 136 123 hla_target.c:601 adapter_read_memory(): adapter_read_memory 0xe000ef44 4 1
Debug: 137 124 target.c:2628 target_read_u32(): address: 0xe000ef44, value: 0x11000011
Debug: 138 124 cortex_m.c:2392 cortex_m_examine(): [stm32f3x.cpu] Cortex-M4 floating point feature FPv4_SP found
Debug: 139 124 hla_target.c:601 adapter_read_memory(): adapter_read_memory 0xe000edf0 4 1
Debug: 140 124 target.c:2628 target_read_u32(): address: 0xe000edf0, value: 0x00030003
Debug: 141 124 target.c:2716 target_write_u32(): address: 0xe000edfc, value: 0x01000000
Debug: 142 124 hla_target.c:616 adapter_write_memory(): adapter_write_memory 0xe000edfc 4 1
Debug: 143 125 hla_target.c:601 adapter_read_memory(): adapter_read_memory 0xe0002000 4 1
Debug: 144 125 target.c:2628 target_read_u32(): address: 0xe0002000, value: 0x00000261
Debug: 145 125 target.c:2716 target_write_u32(): address: 0xe0002008, value: 0x00000000
Debug: 146 125 hla_target.c:616 adapter_write_memory(): adapter_write_memory 0xe0002008 4 1
Debug: 147 126 target.c:2716 target_write_u32(): address: 0xe000200c, value: 0x00000000
Debug: 148 126 hla_target.c:616 adapter_write_memory(): adapter_write_memory 0xe000200c 4 1
Debug: 149 126 target.c:2716 target_write_u32(): address: 0xe0002010, value: 0x00000000
Debug: 150 126 hla_target.c:616 adapter_write_memory(): adapter_write_memory 0xe0002010 4 1
Debug: 151 126 target.c:2716 target_write_u32(): address: 0xe0002014, value: 0x00000000
Debug: 152 126 hla_target.c:616 adapter_write_memory(): adapter_write_memory 0xe0002014 4 1
Debug: 153 127 target.c:2716 target_write_u32(): address: 0xe0002018, value: 0x00000000
Debug: 154 127 hla_target.c:616 adapter_write_memory(): adapter_write_memory 0xe0002018 4 1
Debug: 155 127 target.c:2716 target_write_u32(): address: 0xe000201c, value: 0x00000000
Debug: 156 127 hla_target.c:616 adapter_write_memory(): adapter_write_memory 0xe000201c 4 1
Debug: 157 128 target.c:2716 target_write_u32(): address: 0xe0002020, value: 0x00000000
Debug: 158 128 hla_target.c:616 adapter_write_memory(): adapter_write_memory 0xe0002020 4 1
Debug: 159 128 target.c:2716 target_write_u32(): address: 0xe0002024, value: 0x00000000
Debug: 160 128 hla_target.c:616 adapter_write_memory(): adapter_write_memory 0xe0002024 4 1
Debug: 161 129 cortex_m.c:2488 cortex_m_examine(): [stm32f3x.cpu] FPB fpcr 0x261, numcode 6, numlit 2
Debug: 162 129 hla_target.c:601 adapter_read_memory(): adapter_read_memory 0xe0001000 4 1
Debug: 163 129 target.c:2628 target_read_u32(): address: 0xe0001000, value: 0x40000001
Debug: 164 129 cortex_m.c:2187 cortex_m_dwt_setup(): [stm32f3x.cpu] DWT_CTRL: 0x40000001
Debug: 165 129 hla_target.c:601 adapter_read_memory(): adapter_read_memory 0xe0001fbc 4 1
Debug: 166 129 target.c:2628 target_read_u32(): address: 0xe0001fbc, value: 0x00000000
Debug: 167 129 cortex_m.c:2194 cortex_m_dwt_setup(): [stm32f3x.cpu] DWT_DEVARCH: 0x0
Debug: 168 129 target.c:2716 target_write_u32(): address: 0xe0001028, value: 0x00000000
Debug: 169 129 hla_target.c:616 adapter_write_memory(): adapter_write_memory 0xe0001028 4 1
Debug: 170 130 target.c:2716 target_write_u32(): address: 0xe0001038, value: 0x00000000
Debug: 171 130 hla_target.c:616 adapter_write_memory(): adapter_write_memory 0xe0001038 4 1
Debug: 172 130 target.c:2716 target_write_u32(): address: 0xe0001048, value: 0x00000000
Debug: 173 130 hla_target.c:616 adapter_write_memory(): adapter_write_memory 0xe0001048 4 1
Debug: 174 131 target.c:2716 target_write_u32(): address: 0xe0001058, value: 0x00000000
Debug: 175 131 hla_target.c:616 adapter_write_memory(): adapter_write_memory 0xe0001058 4 1
Debug: 176 131 cortex_m.c:2241 cortex_m_dwt_setup(): [stm32f3x.cpu] DWT dwtcr 0x40000001, comp 4, watch/trigger
Info : 177 131 cortex_m.c:2498 cortex_m_examine(): [stm32f3x.cpu] target has 6 breakpoints, 4 watchpoints
Debug: 178 131 target.c:1843 target_call_event_callbacks(): target event 21 (examine-end) for core stm32f3x.cpu
Debug: 179 131 target.c:5099 target_handle_event(): target(0): stm32f3x.cpu (hla_target) event: 21 (examine-end) action:  stm32f3x_default_examine_end 
Debug: 180 131 command.c:155 script_debug(): command - read_memory 0xe0042004 32 1
Debug: 181 131 hla_target.c:601 adapter_read_memory(): adapter_read_memory 0xe0042004 4 1
Debug: 182 132 command.c:155 script_debug(): command - mww 0xe0042004 39
Debug: 183 132 hla_target.c:616 adapter_write_memory(): adapter_write_memory 0xe0042004 4 1
Debug: 184 132 command.c:155 script_debug(): command - read_memory 0xe0042008 32 1
Debug: 185 132 hla_target.c:601 adapter_read_memory(): adapter_read_memory 0xe0042008 4 1
Debug: 186 133 command.c:155 script_debug(): command - mww 0xe0042008 6144
Debug: 187 133 hla_target.c:616 adapter_write_memory(): adapter_write_memory 0xe0042008 4 1
Debug: 188 133 command.c:155 script_debug(): command - flash init
Debug: 189 133 tcl.c:1375 handle_flash_init_command(): Initializing flash devices...
Debug: 190 133 command.c:155 script_debug(): command - nand init
Debug: 191 133 tcl.c:487 handle_nand_init_command(): Initializing NAND devices...
Debug: 192 133 command.c:155 script_debug(): command - pld init
Debug: 193 133 pld.c:194 handle_pld_init_command(): Initializing PLDs...
Debug: 194 133 command.c:155 script_debug(): command - tpiu init
Info : 195 133 gdb_server.c:3791 gdb_target_start(): starting gdb server for stm32f3x.cpu on 3333
Info : 196 133 server.c:297 add_service(): Listening on port 3333 for gdb connections
Debug: 197 221 hla_target.c:601 adapter_read_memory(): adapter_read_memory 0xe000edf8 4 1
Debug: 198 221 target.c:2628 target_read_u32(): address: 0xe000edf8, value: 0x80000010
Debug: 199 222 armv7m.c:368 armv7m_read_core_reg(): read r0 value 0x00000000
Debug: 200 223 armv7m.c:368 armv7m_read_core_reg(): read r1 value 0x0800d65e
Debug: 201 223 armv7m.c:368 armv7m_read_core_reg(): read r2 value 0x0800d65e
Debug: 202 224 armv7m.c:368 armv7m_read_core_reg(): read r3 value 0x00000002
Debug: 203 225 armv7m.c:368 armv7m_read_core_reg(): read r4 value 0x00000000
Debug: 204 225 armv7m.c:368 armv7m_read_core_reg(): read r5 value 0x0000001b
Debug: 205 226 armv7m.c:368 armv7m_read_core_reg(): read r6 value 0x01a65530
Debug: 206 227 armv7m.c:368 armv7m_read_core_reg(): read r7 value 0x20009fc8
Debug: 207 227 armv7m.c:368 armv7m_read_core_reg(): read r8 value 0x00000000
Debug: 208 228 armv7m.c:368 armv7m_read_core_reg(): read r9 value 0x00000000
Debug: 209 229 armv7m.c:368 armv7m_read_core_reg(): read r10 value 0x00000000
Debug: 210 230 armv7m.c:368 armv7m_read_core_reg(): read r11 value 0x00000000
Debug: 211 230 armv7m.c:368 armv7m_read_core_reg(): read r12 value 0x00000000
Debug: 212 231 armv7m.c:368 armv7m_read_core_reg(): read sp value 0x20009f40
Debug: 213 232 armv7m.c:368 armv7m_read_core_reg(): read lr value 0x08003ead
Debug: 214 232 armv7m.c:368 armv7m_read_core_reg(): read pc value 0x0800158e
Debug: 215 233 armv7m.c:368 armv7m_read_core_reg(): read xPSR value 0x61000000
Debug: 216 234 armv7m.c:368 armv7m_read_core_reg(): read msp value 0x20009f40
Debug: 217 234 armv7m.c:368 armv7m_read_core_reg(): read psp value 0x00000000
Debug: 218 235 armv7m.c:368 armv7m_read_core_reg(): read pmsk_bpri_fltmsk_ctrl value 0x00000000
Debug: 219 236 armv7m.c:366 armv7m_read_core_reg(): read d0 value 0x3fd0a3d93e0f5c2a
Debug: 220 238 armv7m.c:366 armv7m_read_core_reg(): read d1 value 0x414312d03f1ccccd
Debug: 221 239 armv7m.c:366 armv7m_read_core_reg(): read d2 value 0x0000000042c80000
Debug: 222 240 armv7m.c:366 armv7m_read_core_reg(): read d3 value 0x000000003ed70a3d
Debug: 223 242 armv7m.c:366 armv7m_read_core_reg(): read d4 value 0x00000000447a0000
Debug: 224 243 armv7m.c:366 armv7m_read_core_reg(): read d5 value 0x0000000000000000
Debug: 225 244 armv7m.c:366 armv7m_read_core_reg(): read d6 value 0x0000000000000000
Debug: 226 246 armv7m.c:366 armv7m_read_core_reg(): read d7 value 0x0000000000000000
Debug: 227 247 armv7m.c:366 armv7m_read_core_reg(): read d8 value 0x0000000000000000
Debug: 228 248 armv7m.c:366 armv7m_read_core_reg(): read d9 value 0x0000000000000000
Debug: 229 250 armv7m.c:366 armv7m_read_core_reg(): read d10 value 0x0000000000000000
Debug: 230 251 armv7m.c:366 armv7m_read_core_reg(): read d11 value 0x0000000000000000
Debug: 231 252 armv7m.c:366 armv7m_read_core_reg(): read d12 value 0x0000000000000000
Debug: 232 254 armv7m.c:366 armv7m_read_core_reg(): read d13 value 0x0000000000000000
Debug: 233 255 armv7m.c:366 armv7m_read_core_reg(): read d14 value 0x0000000000000000
Debug: 234 256 armv7m.c:366 armv7m_read_core_reg(): read d15 value 0x0000000000000000
Debug: 235 257 armv7m.c:368 armv7m_read_core_reg(): read fpscr value 0x80000010
Debug: 236 257 hla_target.c:278 adapter_debug_entry(): entered debug state in core mode: Thread at PC 0x0800158e, target->state: halted
Debug: 237 257 target.c:1843 target_call_event_callbacks(): target event 0 (gdb-halt) for core stm32f3x.cpu
Debug: 238 258 target.c:1843 target_call_event_callbacks(): target event 1 (halted) for core stm32f3x.cpu
User : 239 258 armv7m.c:738 armv7m_arch_state(): [stm32f3x.cpu] halted due to breakpoint, current mode: Thread 
xPSR: 0x61000000 pc: 0x0800158e msp: 0x20009f40
Debug: 240 258 hla_target.c:323 adapter_poll(): halted: PC: 0x0800158e
Info : 241 3414 server.c:90 add_connection(): accepting 'gdb' connection on tcp/3333
Debug: 242 3414 breakpoints.c:362 breakpoint_clear_target_internal(): Delete all breakpoints for target: stm32f3x.cpu
Debug: 243 3414 breakpoints.c:542 watchpoint_clear_target(): Delete all watchpoints for target: stm32f3x.cpu
Debug: 244 3414 target.c:1843 target_call_event_callbacks(): target event 22 (gdb-attach) for core stm32f3x.cpu
Debug: 245 3414 target.c:5099 target_handle_event(): target(0): stm32f3x.cpu (hla_target) event: 22 (gdb-attach) action: halt 1000
Debug: 246 3414 command.c:155 script_debug(): command - halt 1000
Debug: 247 3414 target.c:3305 handle_halt_command(): -
Debug: 248 3414 hla_target.c:417 adapter_halt(): adapter_halt
Debug: 249 3414 hla_target.c:420 adapter_halt(): target was already halted
Debug: 250 3415 hla_target.c:601 adapter_read_memory(): adapter_read_memory 0xe0042000 4 1
Debug: 251 3415 target.c:2628 target_read_u32(): address: 0xe0042000, value: 0x10036422
Info : 252 3415 stm32f1x.c:827 stm32x_probe(): device id = 0x10036422
Debug: 253 3415 hla_target.c:601 adapter_read_memory(): adapter_read_memory 0x1ffff7cc 2 1
Debug: 254 3416 target.c:2652 target_read_u16(): address: 0x1ffff7cc, value: 0x0100
Info : 255 3416 stm32f1x.c:1009 stm32x_probe(): flash size = 256 KiB
Debug: 256 3416 gdb_server.c:1070 gdb_new_connection(): New GDB Connection: 1, Target stm32f3x.cpu, state: halted
Debug: 257 3416 gdb_server.c:390 gdb_log_incoming_packet(): [stm32f3x.cpu] received packet: qSupported:multiprocess+;swbreak+;hwbreak+;qRelocInsn+;fork-events+;vfork-events+;exec-events+;vContSupported+;QThreadEvents+;QThreadOptions+;no-resumed+;memory-tagging+;xmlRegisters=i386;error-message+
Debug: 258 3416 gdb_server.c:406 gdb_log_outgoing_packet(): [stm32f3x.cpu] sending packet: $PacketSize=4000;qXfer:memory-map:read+;qXfer:features:read+;qXfer:threads:read+;QStartNoAckMode+;vContSupported+#02
Debug: 259 3416 gdb_server.c:390 gdb_log_incoming_packet(): [stm32f3x.cpu] received packet: +
Debug: 260 3416 gdb_server.c:390 gdb_log_incoming_packet(): [stm32f3x.cpu] received packet: vCont?
Debug: 261 3416 gdb_server.c:406 gdb_log_outgoing_packet(): [stm32f3x.cpu] sending packet: $vCont;c;C;s;S#62
Debug: 262 3416 gdb_server.c:390 gdb_log_incoming_packet(): [stm32f3x.cpu] received packet: +
Debug: 263 3416 gdb_server.c:390 gdb_log_incoming_packet(): [stm32f3x.cpu] received packet: vMustReplyEmpty
Debug: 264 3416 gdb_server.c:406 gdb_log_outgoing_packet(): [stm32f3x.cpu] sending packet: $#00
Debug: 265 3416 gdb_server.c:390 gdb_log_incoming_packet(): [stm32f3x.cpu] received packet: +
Debug: 266 3416 gdb_server.c:390 gdb_log_incoming_packet(): [stm32f3x.cpu] received packet: QStartNoAckMode
Debug: 267 3416 gdb_server.c:406 gdb_log_outgoing_packet(): [stm32f3x.cpu] sending packet: $OK#9a
Debug: 268 3416 gdb_server.c:390 gdb_log_incoming_packet(): [stm32f3x.cpu] received packet: +
Debug: 269 3416 gdb_server.c:693 gdb_get_packet_inner(): Received first acknowledgment after entering noack mode. Ignoring it.
Debug: 270 3416 gdb_server.c:390 gdb_log_incoming_packet(): [stm32f3x.cpu] received packet: !
Debug: 271 3416 gdb_server.c:406 gdb_log_outgoing_packet(): [stm32f3x.cpu] sending packet: $OK#9a
Debug: 272 3416 gdb_server.c:390 gdb_log_incoming_packet(): [stm32f3x.cpu] received packet: Hg0
Debug: 273 3416 gdb_server.c:406 gdb_log_outgoing_packet(): [stm32f3x.cpu] sending packet: $OK#9a
Debug: 274 3416 gdb_server.c:390 gdb_log_incoming_packet(): [stm32f3x.cpu] received packet: qXfer:features:read:target.xml:0,1000
Debug: 275 3416 gdb_server.c:403 gdb_log_outgoing_packet(): [stm32f3x.cpu] sending packet: $<binary-data-3942-bytes>#d1
Debug: 276 3416 gdb_server.c:390 gdb_log_incoming_packet(): [stm32f3x.cpu] received packet: qTStatus
Debug: 277 3416 gdb_server.c:406 gdb_log_outgoing_packet(): [stm32f3x.cpu] sending packet: $#00
Debug: 278 3416 gdb_server.c:390 gdb_log_incoming_packet(): [stm32f3x.cpu] received packet: ?
Debug: 279 3416 gdb_server.c:406 gdb_log_outgoing_packet(): [stm32f3x.cpu] sending packet: $S05#b8
Debug: 280 3416 gdb_server.c:390 gdb_log_incoming_packet(): [stm32f3x.cpu] received packet: qXfer:threads:read::0,1000
Debug: 281 3416 gdb_server.c:403 gdb_log_outgoing_packet(): [stm32f3x.cpu] sending packet: $<binary-data-44-bytes>#02
Debug: 282 3417 gdb_server.c:390 gdb_log_incoming_packet(): [stm32f3x.cpu] received packet: Hc-1
Debug: 283 3417 gdb_server.c:406 gdb_log_outgoing_packet(): [stm32f3x.cpu] sending packet: $OK#9a
Debug: 284 3417 gdb_server.c:390 gdb_log_incoming_packet(): [stm32f3x.cpu] received packet: qC
Debug: 285 3417 gdb_server.c:406 gdb_log_outgoing_packet(): [stm32f3x.cpu] sending packet: $QC0#c4
Debug: 286 3417 gdb_server.c:390 gdb_log_incoming_packet(): [stm32f3x.cpu] received packet: qAttached
Debug: 287 3417 gdb_server.c:406 gdb_log_outgoing_packet(): [stm32f3x.cpu] sending packet: $1#31
Debug: 288 3417 gdb_server.c:390 gdb_log_incoming_packet(): [stm32f3x.cpu] received packet: qXfer:features:read:target.xml:0,1000
Debug: 289 3417 gdb_server.c:403 gdb_log_outgoing_packet(): [stm32f3x.cpu] sending packet: $<binary-data-3942-bytes>#d1
Debug: 290 3417 gdb_server.c:390 gdb_log_incoming_packet(): [stm32f3x.cpu] received packet: qOffsets
Debug: 291 3417 gdb_server.c:406 gdb_log_outgoing_packet(): [stm32f3x.cpu] sending packet: $Text=0;Data=0;Bss=0#04
Debug: 292 3417 gdb_server.c:390 gdb_log_incoming_packet(): [stm32f3x.cpu] received packet: g
Debug: 293 3417 gdb_server.c:406 gdb_log_outgoing_packet(): [stm32f3x.cpu] sending packet: $000000005ed600085ed6000802000000000000001b0000003055a601c89f00200000000000000000000000000000000000000000409f0020ad3e00088e15000800000061#aa
Debug: 294 3419 gdb_server.c:390 gdb_log_incoming_packet(): [stm32f3x.cpu] received packet: qXfer:threads:read::0,1000
Debug: 295 3419 gdb_server.c:403 gdb_log_outgoing_packet(): [stm32f3x.cpu] sending packet: $<binary-data-44-bytes>#02
Debug: 296 3422 gdb_server.c:390 gdb_log_incoming_packet(): [stm32f3x.cpu] received packet: qXfer:memory-map:read::0,1000
Debug: 297 3422 gdb_server.c:403 gdb_log_outgoing_packet(): [stm32f3x.cpu] sending packet: $<binary-data-260-bytes>#de
Debug: 298 3422 gdb_server.c:390 gdb_log_incoming_packet(): [stm32f3x.cpu] received packet: m800158e,4
Debug: 299 3422 gdb_server.c:1524 gdb_read_memory_packet(): addr: 0x000000000800158e, len: 0x00000004
Debug: 300 3422 target.c:2475 target_read_buffer(): reading buffer of 4 byte at 0x0800158e
Debug: 301 3422 hla_target.c:601 adapter_read_memory(): adapter_read_memory 0x0800158e 2 2
Debug: 302 3423 gdb_server.c:406 gdb_log_outgoing_packet(): [stm32f3x.cpu] sending packet: $fde780b5#65
Debug: 303 3423 gdb_server.c:390 gdb_log_incoming_packet(): [stm32f3x.cpu] received packet: m800158a,4
Debug: 304 3423 gdb_server.c:1524 gdb_read_memory_packet(): addr: 0x000000000800158a, len: 0x00000004
Debug: 305 3423 target.c:2475 target_read_buffer(): reading buffer of 4 byte at 0x0800158a
Debug: 306 3423 hla_target.c:601 adapter_read_memory(): adapter_read_memory 0x0800158a 2 2
Debug: 307 3423 gdb_server.c:406 gdb_log_outgoing_packet(): [stm32f3x.cpu] sending packet: $118830bf#fd
Debug: 308 3423 gdb_server.c:390 gdb_log_incoming_packet(): [stm32f3x.cpu] received packet: m800158e,4
Debug: 309 3423 gdb_server.c:1524 gdb_read_memory_packet(): addr: 0x000000000800158e, len: 0x00000004
Debug: 310 3423 target.c:2475 target_read_buffer(): reading buffer of 4 byte at 0x0800158e
Debug: 311 3423 hla_target.c:601 adapter_read_memory(): adapter_read_memory 0x0800158e 2 2
Debug: 312 3424 gdb_server.c:406 gdb_log_outgoing_packet(): [stm32f3x.cpu] sending packet: $fde780b5#65
Debug: 313 3425 gdb_server.c:390 gdb_log_incoming_packet(): [stm32f3x.cpu] received packet: m800158a,4
Debug: 314 3425 gdb_server.c:1524 gdb_read_memory_packet(): addr: 0x000000000800158a, len: 0x00000004
Debug: 315 3425 target.c:2475 target_read_buffer(): reading buffer of 4 byte at 0x0800158a
Debug: 316 3425 hla_target.c:601 adapter_read_memory(): adapter_read_memory 0x0800158a 2 2
Debug: 317 3425 gdb_server.c:406 gdb_log_outgoing_packet(): [stm32f3x.cpu] sending packet: $118830bf#fd
Debug: 318 3425 gdb_server.c:390 gdb_log_incoming_packet(): [stm32f3x.cpu] received packet: m800158e,2
Debug: 319 3425 gdb_server.c:1524 gdb_read_memory_packet(): addr: 0x000000000800158e, len: 0x00000002
Debug: 320 3425 target.c:2475 target_read_buffer(): reading buffer of 2 byte at 0x0800158e
Debug: 321 3425 hla_target.c:601 adapter_read_memory(): adapter_read_memory 0x0800158e 2 1
Debug: 322 3426 gdb_server.c:406 gdb_log_outgoing_packet(): [stm32f3x.cpu] sending packet: $fde7#66
Debug: 323 3426 gdb_server.c:390 gdb_log_incoming_packet(): [stm32f3x.cpu] received packet: m800158c,2
Debug: 324 3426 gdb_server.c:1524 gdb_read_memory_packet(): addr: 0x000000000800158c, len: 0x00000002
Debug: 325 3426 target.c:2475 target_read_buffer(): reading buffer of 2 byte at 0x0800158c
Debug: 326 3426 hla_target.c:601 adapter_read_memory(): adapter_read_memory 0x0800158c 2 1
Debug: 327 3426 gdb_server.c:406 gdb_log_outgoing_packet(): [stm32f3x.cpu] sending packet: $30bf#2b
Debug: 328 3426 gdb_server.c:390 gdb_log_incoming_packet(): [stm32f3x.cpu] received packet: m800158a,2
Debug: 329 3426 gdb_server.c:1524 gdb_read_memory_packet(): addr: 0x000000000800158a, len: 0x00000002
Debug: 330 3426 target.c:2475 target_read_buffer(): reading buffer of 2 byte at 0x0800158a
Debug: 331 3426 hla_target.c:601 adapter_read_memory(): adapter_read_memory 0x0800158a 2 1
Debug: 332 3427 gdb_server.c:406 gdb_log_outgoing_packet(): [stm32f3x.cpu] sending packet: $1188#d2
Debug: 333 3427 gdb_server.c:390 gdb_log_incoming_packet(): [stm32f3x.cpu] received packet: m800158e,2
Debug: 334 3427 gdb_server.c:1524 gdb_read_memory_packet(): addr: 0x000000000800158e, len: 0x00000002
Debug: 335 3427 target.c:2475 target_read_buffer(): reading buffer of 2 byte at 0x0800158e
Debug: 336 3427 hla_target.c:601 adapter_read_memory(): adapter_read_memory 0x0800158e 2 1
Debug: 337 3427 gdb_server.c:406 gdb_log_outgoing_packet(): [stm32f3x.cpu] sending packet: $fde7#66
Debug: 338 3427 gdb_server.c:390 gdb_log_incoming_packet(): [stm32f3x.cpu] received packet: m800158c,2
Debug: 339 3427 gdb_server.c:1524 gdb_read_memory_packet(): addr: 0x000000000800158c, len: 0x00000002
Debug: 340 3427 target.c:2475 target_read_buffer(): reading buffer of 2 byte at 0x0800158c
Debug: 341 3427 hla_target.c:601 adapter_read_memory(): adapter_read_memory 0x0800158c 2 1
Debug: 342 3428 gdb_server.c:406 gdb_log_outgoing_packet(): [stm32f3x.cpu] sending packet: $30bf#2b
Debug: 343 3428 gdb_server.c:390 gdb_log_incoming_packet(): [stm32f3x.cpu] received packet: m800158a,2
Debug: 344 3428 gdb_server.c:1524 gdb_read_memory_packet(): addr: 0x000000000800158a, len: 0x00000002
Debug: 345 3428 target.c:2475 target_read_buffer(): reading buffer of 2 byte at 0x0800158a
Debug: 346 3428 hla_target.c:601 adapter_read_memory(): adapter_read_memory 0x0800158a 2 1
Debug: 347 3428 gdb_server.c:406 gdb_log_outgoing_packet(): [stm32f3x.cpu] sending packet: $1188#d2
Debug: 348 3428 gdb_server.c:390 gdb_log_incoming_packet(): [stm32f3x.cpu] received packet: m800158e,4
Debug: 349 3428 gdb_server.c:1524 gdb_read_memory_packet(): addr: 0x000000000800158e, len: 0x00000004
Debug: 350 3429 target.c:2475 target_read_buffer(): reading buffer of 4 byte at 0x0800158e
Debug: 351 3429 hla_target.c:601 adapter_read_memory(): adapter_read_memory 0x0800158e 2 2
Debug: 352 3429 gdb_server.c:406 gdb_log_outgoing_packet(): [stm32f3x.cpu] sending packet: $fde780b5#65
Debug: 353 3429 gdb_server.c:390 gdb_log_incoming_packet(): [stm32f3x.cpu] received packet: m800158a,4
Debug: 354 3429 gdb_server.c:1524 gdb_read_memory_packet(): addr: 0x000000000800158a, len: 0x00000004
Debug: 355 3429 target.c:2475 target_read_buffer(): reading buffer of 4 byte at 0x0800158a
Debug: 356 3429 hla_target.c:601 adapter_read_memory(): adapter_read_memory 0x0800158a 2 2
Debug: 357 3430 gdb_server.c:406 gdb_log_outgoing_packet(): [stm32f3x.cpu] sending packet: $118830bf#fd
Debug: 358 3430 gdb_server.c:390 gdb_log_incoming_packet(): [stm32f3x.cpu] received packet: m800158e,4
Debug: 359 3430 gdb_server.c:1524 gdb_read_memory_packet(): addr: 0x000000000800158e, len: 0x00000004
Debug: 360 3430 target.c:2475 target_read_buffer(): reading buffer of 4 byte at 0x0800158e
Debug: 361 3430 hla_target.c:601 adapter_read_memory(): adapter_read_memory 0x0800158e 2 2
Debug: 362 3431 gdb_server.c:406 gdb_log_outgoing_packet(): [stm32f3x.cpu] sending packet: $fde780b5#65
Debug: 363 3431 gdb_server.c:390 gdb_log_incoming_packet(): [stm32f3x.cpu] received packet: m800158a,4
Debug: 364 3431 gdb_server.c:1524 gdb_read_memory_packet(): addr: 0x000000000800158a, len: 0x00000004
Debug: 365 3431 target.c:2475 target_read_buffer(): reading buffer of 4 byte at 0x0800158a
Debug: 366 3431 hla_target.c:601 adapter_read_memory(): adapter_read_memory 0x0800158a 2 2
Debug: 367 3431 gdb_server.c:406 gdb_log_outgoing_packet(): [stm32f3x.cpu] sending packet: $118830bf#fd
Debug: 368 3431 gdb_server.c:390 gdb_log_incoming_packet(): [stm32f3x.cpu] received packet: m800158e,4
Debug: 369 3431 gdb_server.c:1524 gdb_read_memory_packet(): addr: 0x000000000800158e, len: 0x00000004
Debug: 370 3431 target.c:2475 target_read_buffer(): reading buffer of 4 byte at 0x0800158e
Debug: 371 3431 hla_target.c:601 adapter_read_memory(): adapter_read_memory 0x0800158e 2 2
Debug: 372 3432 gdb_server.c:406 gdb_log_outgoing_packet(): [stm32f3x.cpu] sending packet: $fde780b5#65
Debug: 373 3432 gdb_server.c:390 gdb_log_incoming_packet(): [stm32f3x.cpu] received packet: m800158e,4
Debug: 374 3432 gdb_server.c:1524 gdb_read_memory_packet(): addr: 0x000000000800158e, len: 0x00000004
Debug: 375 3432 target.c:2475 target_read_buffer(): reading buffer of 4 byte at 0x0800158e
Debug: 376 3432 hla_target.c:601 adapter_read_memory(): adapter_read_memory 0x0800158e 2 2
Debug: 377 3433 gdb_server.c:406 gdb_log_outgoing_packet(): [stm32f3x.cpu] sending packet: $fde780b5#65
Debug: 378 3433 gdb_server.c:390 gdb_log_incoming_packet(): [stm32f3x.cpu] received packet: m800158e,4
Debug: 379 3433 gdb_server.c:1524 gdb_read_memory_packet(): addr: 0x000000000800158e, len: 0x00000004
Debug: 380 3433 target.c:2475 target_read_buffer(): reading buffer of 4 byte at 0x0800158e
Debug: 381 3433 hla_target.c:601 adapter_read_memory(): adapter_read_memory 0x0800158e 2 2
Debug: 382 3433 gdb_server.c:406 gdb_log_outgoing_packet(): [stm32f3x.cpu] sending packet: $fde780b5#65
Debug: 383 3434 gdb_server.c:390 gdb_log_incoming_packet(): [stm32f3x.cpu] received packet: p11
Debug: 384 3434 gdb_server.c:406 gdb_log_outgoing_packet(): [stm32f3x.cpu] sending packet: $409f0020#c5
Debug: 385 3434 gdb_server.c:390 gdb_log_incoming_packet(): [stm32f3x.cpu] received packet: p12
Debug: 386 3434 gdb_server.c:406 gdb_log_outgoing_packet(): [stm32f3x.cpu] sending packet: $00000000#80
Debug: 387 3434 gdb_server.c:390 gdb_log_incoming_packet(): [stm32f3x.cpu] received packet: m20009fc0,40
Debug: 388 3434 gdb_server.c:1524 gdb_read_memory_packet(): addr: 0x0000000020009fc0, len: 0x00000040
Debug: 389 3434 target.c:2475 target_read_buffer(): reading buffer of 64 byte at 0x20009fc0
Debug: 390 3434 hla_target.c:601 adapter_read_memory(): adapter_read_memory 0x20009fc0 4 16
Debug: 391 3435 gdb_server.c:406 gdb_log_outgoing_packet(): [stm32f3x.cpu] sending packet: $2f470008000000e0e89f00203f16000814000000100000200c000020280000200164f5d90000a468f09f002063460008f89f0020e101000800000000ffffffff#55
Debug: 392 3443 gdb_server.c:390 gdb_log_incoming_packet(): [stm32f3x.cpu] received packet: qSymbol::
Debug: 393 3443 gdb_server.c:406 gdb_log_outgoing_packet(): [stm32f3x.cpu] sending packet: $OK#9a
Debug: 394 3443 gdb_server.c:390 gdb_log_incoming_packet(): [stm32f3x.cpu] received packet: qRcmd,7470697520636f6e66696720696e7465726e616c2069746d2e6c6f672075617274206f66662038303030303030
Debug: 395 3444 command.c:155 script_debug(): command - tpiu config internal itm.log uart off 8000000
Info : 396 3444 arm_tpiu_swo.c:1045 handle_tpiu_deprecated_config_command(): DEPRECATED 'tpiu config' command: Using stm32f3x.tpiu
Debug: 397 3444 gdb_server.c:406 gdb_log_outgoing_packet(): [stm32f3x.cpu] sending packet: $O4445505245434154454420277470697520636f6e6669672720636f6d6d616e643a205573696e672073746d33326633782e747069750a#80
Info : 398 3444 arm_tpiu_swo.c:1135 handle_tpiu_deprecated_config_command(): DEPRECATED 'tpiu config' command: Running: 'stm32f3x.tpiu configure -protocol uart -traceclk 8000000 -output itm.log -formatter off'
Debug: 399 3444 gdb_server.c:406 gdb_log_outgoing_packet(): [stm32f3x.cpu] sending packet: $O4445505245434154454420277470697520636f6e6669672720636f6d6d616e643a2052756e6e696e673a202773746d33326633782e7470697520636f6e666967757265202d70726f746f636f6c2075617274202d7472616365636c6b2038303030303030202d6f75747075742069746d2e6c6f67202d666f726d6174746572206f6666270a#19
Debug: 400 3444 command.c:155 script_debug(): command - stm32f3x.tpiu configure -protocol uart -traceclk 8000000 -output itm.log -formatter off
Info : 401 3444 arm_tpiu_swo.c:1152 handle_tpiu_deprecated_config_command(): DEPRECATED 'tpiu config' command: Running: 'stm32f3x.tpiu enable'
Debug: 402 3444 gdb_server.c:406 gdb_log_outgoing_packet(): [stm32f3x.cpu] sending packet: $O4445505245434154454420277470697520636f6e6669672720636f6d6d616e643a2052756e6e696e673a202773746d33326633782e7470697520656e61626c65270a#56
Debug: 403 3444 command.c:155 script_debug(): command - stm32f3x.tpiu enable
Debug: 404 3444 arm_tpiu_swo.c:632 jim_arm_tpiu_swo_enable(): SWO pin frequency not set, will be autodetected by the adapter
Debug: 405 3444 arm_adi_v5.c:1095 dap_get_ap(): refcount AP#0x0 get 1
Debug: 406 3444 arm_tpiu_swo.c:170 arm_tpiu_swo_handle_event(): TPIU/SWO: stm32f3x.tpiu event: pre-enable (0) action : _proc_pre_enable_stm32f3x.tpiu stm32f3x.cpu
Debug: 407 3444 command.c:155 script_debug(): command - targets stm32f3x.cpu
Debug: 408 3444 command.c:155 script_debug(): command - read_memory 0xe0042004 32 1
Debug: 409 3444 hla_target.c:601 adapter_read_memory(): adapter_read_memory 0xe0042004 4 1
Debug: 410 3444 command.c:155 script_debug(): command - mww 0xe0042004 39
Debug: 411 3444 hla_target.c:616 adapter_write_memory(): adapter_write_memory 0xe0042004 4 1
Debug: 412 3445 hla_target.c:601 adapter_read_memory(): adapter_read_memory 0xe0040fc8 4 1
Debug: 413 3445 target.c:2628 target_read_u32(): address: 0xe0040fc8, value: 0x00000ca1
Debug: 414 3445 stlink_usb.c:2193 stlink_usb_trace_disable(): Tracing: disable
Debug: 415 3445 stlink_usb.c:2227 stlink_usb_trace_enable(): Tracing: recording at 2000000Hz
Info : 416 3445 arm_tpiu_swo.c:754 jim_arm_tpiu_swo_enable(): SWO pin data rate adjusted by adapter to 2000000 Hz
Debug: 417 3445 gdb_server.c:406 gdb_log_outgoing_packet(): [stm32f3x.cpu] sending packet: $O53574f2070696e206461746120726174652061646a7573746564206279206164617074657220746f203230303030303020487a0a#70
Debug: 418 3445 target.c:2716 target_write_u32(): address: 0xe0040004, value: 0x00000001
Debug: 419 3445 hla_target.c:616 adapter_write_memory(): adapter_write_memory 0xe0040004 4 1
Debug: 420 3446 target.c:2716 target_write_u32(): address: 0xe0040010, value: 0x00000003
Debug: 421 3446 hla_target.c:616 adapter_write_memory(): adapter_write_memory 0xe0040010 4 1
Debug: 422 3446 target.c:2716 target_write_u32(): address: 0xe00400f0, value: 0x00000002
Debug: 423 3446 hla_target.c:616 adapter_write_memory(): adapter_write_memory 0xe00400f0 4 1
Debug: 424 3447 hla_target.c:601 adapter_read_memory(): adapter_read_memory 0xe0040304 4 1
Debug: 425 3447 target.c:2628 target_read_u32(): address: 0xe0040304, value: 0x00000100
Debug: 426 3447 target.c:2716 target_write_u32(): address: 0xe0040304, value: 0x00000100
Debug: 427 3447 hla_target.c:616 adapter_write_memory(): adapter_write_memory 0xe0040304 4 1
Debug: 428 3448 gdb_server.c:406 gdb_log_outgoing_packet(): [stm32f3x.cpu] sending packet: $OK#9a
Debug: 429 3448 gdb_server.c:390 gdb_log_incoming_packet(): [stm32f3x.cpu] received packet: qRcmd,69746d20706f72742030206f6e
Debug: 430 3449 command.c:155 script_debug(): command - itm port 0 on
Debug: 431 3449 target.c:2716 target_write_u32(): address: 0xe0000fb0, value: 0xc5acce55
Debug: 432 3449 hla_target.c:616 adapter_write_memory(): adapter_write_memory 0xe0000fb0 4 1
Debug: 433 3449 hla_target.c:601 adapter_read_memory(): adapter_read_memory 0xe0000e80 4 1
Debug: 434 3450 target.c:2628 target_read_u32(): address: 0xe0000e80, value: 0x00010009
Debug: 435 3450 target.c:2716 target_write_u32(): address: 0xe0000e80, value: 0x00010008
Debug: 436 3450 hla_target.c:616 adapter_write_memory(): adapter_write_memory 0xe0000e80 4 1
Debug: 437 3450 hla_target.c:601 adapter_read_memory(): adapter_read_memory 0xe0000e80 4 1
Debug: 438 3451 target.c:2628 target_read_u32(): address: 0xe0000e80, value: 0x00010008
Debug: 439 3451 target.c:2716 target_write_u32(): address: 0xe0000e80, value: 0x00010009
Debug: 440 3451 hla_target.c:616 adapter_write_memory(): adapter_write_memory 0xe0000e80 4 1
Debug: 441 3451 target.c:2716 target_write_u32(): address: 0xe0000e00, value: 0x00000001
Debug: 442 3451 hla_target.c:616 adapter_write_memory(): adapter_write_memory 0xe0000e00 4 1
Debug: 443 3451 target.c:2716 target_write_u32(): address: 0xe0000e04, value: 0x00000000
Debug: 444 3451 hla_target.c:616 adapter_write_memory(): adapter_write_memory 0xe0000e04 4 1
Debug: 445 3452 target.c:2716 target_write_u32(): address: 0xe0000e08, value: 0x00000000
Debug: 446 3452 hla_target.c:616 adapter_write_memory(): adapter_write_memory 0xe0000e08 4 1
Debug: 447 3452 target.c:2716 target_write_u32(): address: 0xe0000e0c, value: 0x00000000
Debug: 448 3452 hla_target.c:616 adapter_write_memory(): adapter_write_memory 0xe0000e0c 4 1
Debug: 449 3453 target.c:2716 target_write_u32(): address: 0xe0000e10, value: 0x00000000
Debug: 450 3453 hla_target.c:616 adapter_write_memory(): adapter_write_memory 0xe0000e10 4 1
Debug: 451 3453 target.c:2716 target_write_u32(): address: 0xe0000e14, value: 0x00000000
Debug: 452 3453 hla_target.c:616 adapter_write_memory(): adapter_write_memory 0xe0000e14 4 1
Debug: 453 3454 target.c:2716 target_write_u32(): address: 0xe0000e18, value: 0x00000000
Debug: 454 3454 hla_target.c:616 adapter_write_memory(): adapter_write_memory 0xe0000e18 4 1
Debug: 455 3454 target.c:2716 target_write_u32(): address: 0xe0000e1c, value: 0x00000000
Debug: 456 3454 hla_target.c:616 adapter_write_memory(): adapter_write_memory 0xe0000e1c 4 1
Debug: 457 3455 gdb_server.c:406 gdb_log_outgoing_packet(): [stm32f3x.cpu] sending packet: $OK#9a
Debug: 458 3455 gdb_server.c:390 gdb_log_incoming_packet(): [stm32f3x.cpu] received packet: vFlashErase:08000000,00010000
Debug: 459 3455 target.c:1843 target_call_event_callbacks(): target event 24 (gdb-flash-erase-start) for core stm32f3x.cpu
Debug: 460 3455 target.c:5099 target_handle_event(): target(0): stm32f3x.cpu (hla_target) event: 24 (gdb-flash-erase-start) action: reset init
Debug: 461 3455 command.c:155 script_debug(): command - reset init
Debug: 462 3455 target.c:1862 target_call_reset_callbacks(): target reset 3 (init)
Debug: 463 3455 command.c:155 script_debug(): command - target names
Debug: 464 3455 command.c:155 script_debug(): command - stm32f3x.cpu invoke-event reset-start
Debug: 465 3455 target.c:5099 target_handle_event(): target(0): stm32f3x.cpu (hla_target) event: 9 (reset-start) action:  stm32f3x_default_reset_start 
Debug: 466 3455 command.c:155 script_debug(): command - adapter speed 1000
Debug: 467 3455 adapter.c:251 adapter_config_khz(): handle adapter khz
Debug: 468 3455 adapter.c:215 adapter_khz_to_speed(): convert khz to adapter specific speed value
Debug: 469 3455 adapter.c:219 adapter_khz_to_speed(): have adapter set up
Info : 470 3455 stlink_usb.c:3036 stlink_match_speed_map(): Unable to match requested speed 1000 kHz, using 950 kHz
Debug: 471 3455 adapter.c:215 adapter_khz_to_speed(): convert khz to adapter specific speed value
Debug: 472 3455 adapter.c:219 adapter_khz_to_speed(): have adapter set up
Info : 473 3455 stlink_usb.c:3036 stlink_match_speed_map(): Unable to match requested speed 1000 kHz, using 950 kHz
Debug: 474 3456 command.c:155 script_debug(): command - transport select
Debug: 475 3456 command.c:155 script_debug(): command - transport select
Debug: 476 3456 command.c:155 script_debug(): command - stm32f3x.cpu invoke-event examine-start
Debug: 477 3456 command.c:155 script_debug(): command - stm32f3x.cpu arp_examine allow-defer
Debug: 478 3456 command.c:155 script_debug(): command - stm32f3x.cpu invoke-event examine-end
Debug: 479 3456 target.c:5099 target_handle_event(): target(0): stm32f3x.cpu (hla_target) event: 21 (examine-end) action:  stm32f3x_default_examine_end 
Debug: 480 3456 command.c:155 script_debug(): command - read_memory 0xe0042004 32 1
Debug: 481 3456 hla_target.c:601 adapter_read_memory(): adapter_read_memory 0xe0042004 4 1
Debug: 482 3456 command.c:155 script_debug(): command - mww 0xe0042004 39
Debug: 483 3456 hla_target.c:616 adapter_write_memory(): adapter_write_memory 0xe0042004 4 1
Debug: 484 3457 command.c:155 script_debug(): command - read_memory 0xe0042008 32 1
Debug: 485 3457 hla_target.c:601 adapter_read_memory(): adapter_read_memory 0xe0042008 4 1
Debug: 486 3457 command.c:155 script_debug(): command - mww 0xe0042008 6144
Debug: 487 3457 hla_target.c:616 adapter_write_memory(): adapter_write_memory 0xe0042008 4 1
Debug: 488 3458 command.c:155 script_debug(): command - stm32f3x.cpu invoke-event reset-assert-pre
Debug: 489 3458 command.c:155 script_debug(): command - transport select
Debug: 490 3458 command.c:155 script_debug(): command - stm32f3x.cpu arp_reset assert 1
Debug: 491 3458 target.c:2199 target_free_all_working_areas_restore(): freeing all working areas
Debug: 492 3458 hla_target.c:336 hl_assert_reset(): hl_assert_reset
Debug: 493 3460 stlink_usb.c:2193 stlink_usb_trace_disable(): Tracing: disable
Debug: 494 3460 stlink_usb.c:2227 stlink_usb_trace_enable(): Tracing: recording at 2000000Hz
Debug: 495 3460 command.c:155 script_debug(): command - stm32f3x.cpu invoke-event reset-assert-post
Debug: 496 3460 command.c:155 script_debug(): command - stm32f3x.cpu invoke-event reset-deassert-pre
Debug: 497 3460 command.c:155 script_debug(): command - transport select
Debug: 498 3460 command.c:155 script_debug(): command - stm32f3x.cpu arp_reset deassert 1
Debug: 499 3460 target.c:2199 target_free_all_working_areas_restore(): freeing all working areas
Debug: 500 3460 hla_target.c:402 hl_deassert_reset(): hl_deassert_reset
Debug: 501 3460 command.c:155 script_debug(): command - stm32f3x.cpu invoke-event reset-deassert-post
Debug: 502 3461 command.c:155 script_debug(): command - transport select
Debug: 503 3461 command.c:155 script_debug(): command - stm32f3x.cpu was_examined
Debug: 504 3461 command.c:155 script_debug(): command - stm32f3x.cpu arp_waitstate halted 1000
Debug: 505 3461 target.c:3286 target_wait_state(): waiting for target halted...
Debug: 506 3462 hla_target.c:601 adapter_read_memory(): adapter_read_memory 0xe000edf8 4 1
Debug: 507 3462 target.c:2628 target_read_u32(): address: 0xe000edf8, value: 0x80000010
Debug: 508 3463 armv7m.c:368 armv7m_read_core_reg(): read r0 value 0x00000000
Debug: 509 3464 armv7m.c:368 armv7m_read_core_reg(): read r1 value 0x00000000
Debug: 510 3464 armv7m.c:368 armv7m_read_core_reg(): read r2 value 0x00000000
Debug: 511 3465 armv7m.c:368 armv7m_read_core_reg(): read r3 value 0x00000000
Debug: 512 3466 armv7m.c:368 armv7m_read_core_reg(): read r4 value 0x00000000
Debug: 513 3466 armv7m.c:368 armv7m_read_core_reg(): read r5 value 0x00000000
Debug: 514 3467 armv7m.c:368 armv7m_read_core_reg(): read r6 value 0x00000000
Debug: 515 3468 armv7m.c:368 armv7m_read_core_reg(): read r7 value 0x00000000
Debug: 516 3468 armv7m.c:368 armv7m_read_core_reg(): read r8 value 0x00000000
Debug: 517 3469 armv7m.c:368 armv7m_read_core_reg(): read r9 value 0x00000000
Debug: 518 3470 armv7m.c:368 armv7m_read_core_reg(): read r10 value 0x00000000
Debug: 519 3471 armv7m.c:368 armv7m_read_core_reg(): read r11 value 0x00000000
Debug: 520 3471 armv7m.c:368 armv7m_read_core_reg(): read r12 value 0x00000000
Debug: 521 3472 armv7m.c:368 armv7m_read_core_reg(): read sp value 0x2000a000
Debug: 522 3473 armv7m.c:368 armv7m_read_core_reg(): read lr value 0xffffffff
Debug: 523 3473 armv7m.c:368 armv7m_read_core_reg(): read pc value 0x08000194
Debug: 524 3474 armv7m.c:368 armv7m_read_core_reg(): read xPSR value 0x01000000
Debug: 525 3475 armv7m.c:368 armv7m_read_core_reg(): read msp value 0x2000a000
Debug: 526 3475 armv7m.c:368 armv7m_read_core_reg(): read psp value 0x00000000
Debug: 527 3476 armv7m.c:368 armv7m_read_core_reg(): read pmsk_bpri_fltmsk_ctrl value 0x00000000
Debug: 528 3477 armv7m.c:366 armv7m_read_core_reg(): read d0 value 0x0000000000000000
Debug: 529 3479 armv7m.c:366 armv7m_read_core_reg(): read d1 value 0x0000000000000000
Debug: 530 3480 armv7m.c:366 armv7m_read_core_reg(): read d2 value 0x0000000000000000
Debug: 531 3481 armv7m.c:366 armv7m_read_core_reg(): read d3 value 0x0000000000000000
Debug: 532 3483 armv7m.c:366 armv7m_read_core_reg(): read d4 value 0x0000000000000000
Debug: 533 3484 armv7m.c:366 armv7m_read_core_reg(): read d5 value 0x0000000000000000
Debug: 534 3486 armv7m.c:366 armv7m_read_core_reg(): read d6 value 0x0000000000000000
Debug: 535 3487 armv7m.c:366 armv7m_read_core_reg(): read d7 value 0x0000000000000000
Debug: 536 3488 armv7m.c:366 armv7m_read_core_reg(): read d8 value 0x0000000000000000
Debug: 537 3490 armv7m.c:366 armv7m_read_core_reg(): read d9 value 0x0000000000000000
Debug: 538 3491 armv7m.c:366 armv7m_read_core_reg(): read d10 value 0x0000000000000000
Debug: 539 3492 armv7m.c:366 armv7m_read_core_reg(): read d11 value 0x0000000000000000
Debug: 540 3494 armv7m.c:366 armv7m_read_core_reg(): read d12 value 0x0000000000000000
Debug: 541 3495 armv7m.c:366 armv7m_read_core_reg(): read d13 value 0x0000000000000000
Debug: 542 3496 armv7m.c:366 armv7m_read_core_reg(): read d14 value 0x0000000000000000
Debug: 543 3498 armv7m.c:366 armv7m_read_core_reg(): read d15 value 0x0000000000000000
Debug: 544 3499 armv7m.c:368 armv7m_read_core_reg(): read fpscr value 0x00000000
Debug: 545 3499 hla_target.c:278 adapter_debug_entry(): entered debug state in core mode: Thread at PC 0x08000194, target->state: halted
Debug: 546 3499 target.c:1843 target_call_event_callbacks(): target event 0 (gdb-halt) for core stm32f3x.cpu
Debug: 547 3499 target.c:1843 target_call_event_callbacks(): target event 1 (halted) for core stm32f3x.cpu
User : 548 3499 armv7m.c:738 armv7m_arch_state(): [stm32f3x.cpu] halted due to debug-request, current mode: Thread 
xPSR: 0x01000000 pc: 0x08000194 msp: 0x2000a000
Debug: 549 3499 target.c:1843 target_call_event_callbacks(): target event 8 (gdb-end) for core stm32f3x.cpu
Debug: 550 3499 hla_target.c:323 adapter_poll(): halted: PC: 0x08000194
Debug: 551 3499 command.c:155 script_debug(): command - stm32f3x.cpu curstate
Debug: 552 3499 command.c:155 script_debug(): command - transport select
Debug: 553 3499 command.c:155 script_debug(): command - stm32f3x.cpu was_examined
Debug: 554 3499 command.c:155 script_debug(): command - stm32f3x.cpu arp_waitstate halted 5000
Debug: 555 3499 command.c:155 script_debug(): command - stm32f3x.cpu invoke-event reset-init
Debug: 556 3500 target.c:5099 target_handle_event(): target(0): stm32f3x.cpu (hla_target) event: 15 (reset-init) action:  stm32f3x_default_reset_init 
Debug: 557 3500 command.c:155 script_debug(): command - mww 0x40021004 0x00380400
Debug: 558 3500 hla_target.c:616 adapter_write_memory(): adapter_write_memory 0x40021004 4 1
Debug: 559 3500 command.c:155 script_debug(): command - read_memory 0x40021000 32 1
Debug: 560 3500 hla_target.c:601 adapter_read_memory(): adapter_read_memory 0x40021000 4 1
Debug: 561 3501 command.c:155 script_debug(): command - mww 0x40021000 16800387
Debug: 562 3501 hla_target.c:616 adapter_write_memory(): adapter_write_memory 0x40021000 4 1
Debug: 563 3501 command.c:155 script_debug(): command - mww 0x40022000 0x00000012
Debug: 564 3501 hla_target.c:616 adapter_write_memory(): adapter_write_memory 0x40022000 4 1
Debug: 565 3502 command.c:155 script_debug(): command - sleep 10
Debug: 566 3512 command.c:155 script_debug(): command - read_memory 0x40021004 32 1
Debug: 567 3512 hla_target.c:601 adapter_read_memory(): adapter_read_memory 0x40021004 4 1
Debug: 568 3513 command.c:155 script_debug(): command - mww 0x40021004 3671042
Debug: 569 3513 hla_target.c:616 adapter_write_memory(): adapter_write_memory 0x40021004 4 1
Debug: 570 3513 command.c:155 script_debug(): command - adapter speed 8000
Debug: 571 3513 adapter.c:251 adapter_config_khz(): handle adapter khz
Debug: 572 3513 adapter.c:215 adapter_khz_to_speed(): convert khz to adapter specific speed value
Debug: 573 3513 adapter.c:219 adapter_khz_to_speed(): have adapter set up
Info : 574 3514 stlink_usb.c:3036 stlink_match_speed_map(): Unable to match requested speed 8000 kHz, using 4000 kHz
Debug: 575 3514 adapter.c:215 adapter_khz_to_speed(): convert khz to adapter specific speed value
Debug: 576 3514 adapter.c:219 adapter_khz_to_speed(): have adapter set up
Info : 577 3514 stlink_usb.c:3036 stlink_match_speed_map(): Unable to match requested speed 8000 kHz, using 4000 kHz
Debug: 578 3514 command.c:155 script_debug(): command - stm32f3x.cpu invoke-event reset-end
Debug: 579 3514 target.c:2716 target_write_u32(): address: 0x40022004, value: 0x45670123
Debug: 580 3514 hla_target.c:616 adapter_write_memory(): adapter_write_memory 0x40022004 4 1
Debug: 581 3514 target.c:2716 target_write_u32(): address: 0x40022004, value: 0xcdef89ab
Debug: 582 3514 hla_target.c:616 adapter_write_memory(): adapter_write_memory 0x40022004 4 1
Debug: 583 3515 target.c:2716 target_write_u32(): address: 0x40022010, value: 0x00000002
Debug: 584 3515 hla_target.c:616 adapter_write_memory(): adapter_write_memory 0x40022010 4 1
Debug: 585 3515 target.c:2716 target_write_u32(): address: 0x40022014, value: 0x08000000
Debug: 586 3515 hla_target.c:616 adapter_write_memory(): adapter_write_memory 0x40022014 4 1
Debug: 587 3515 target.c:2716 target_write_u32(): address: 0x40022010, value: 0x00000042
Debug: 588 3515 hla_target.c:616 adapter_write_memory(): adapter_write_memory 0x40022010 4 1
Debug: 589 3515 hla_target.c:601 adapter_read_memory(): adapter_read_memory 0x4002200c 4 1
Debug: 590 3516 target.c:2628 target_read_u32(): address: 0x4002200c, value: 0x00000003
Debug: 591 3516 stm32f1x.c:173 stm32x_wait_status_busy(): status: 0x3
Debug: 592 3517 hla_target.c:601 adapter_read_memory(): adapter_read_memory 0x4002200c 4 1
Debug: 593 3517 target.c:2628 target_read_u32(): address: 0x4002200c, value: 0x00000003
Debug: 594 3517 stm32f1x.c:173 stm32x_wait_status_busy(): status: 0x3
Debug: 595 3518 hla_target.c:601 adapter_read_memory(): adapter_read_memory 0x4002200c 4 1
Debug: 596 3518 target.c:2628 target_read_u32(): address: 0x4002200c, value: 0x00000003
Debug: 597 3518 stm32f1x.c:173 stm32x_wait_status_busy(): status: 0x3
Debug: 598 3519 hla_target.c:601 adapter_read_memory(): adapter_read_memory 0x4002200c 4 1
Debug: 599 3520 target.c:2628 target_read_u32(): address: 0x4002200c, value: 0x00000003
Debug: 600 3520 stm32f1x.c:173 stm32x_wait_status_busy(): status: 0x3
Debug: 601 3521 hla_target.c:601 adapter_read_memory(): adapter_read_memory 0x4002200c 4 1
Debug: 602 3521 target.c:2628 target_read_u32(): address: 0x4002200c, value: 0x00000003
Debug: 603 3521 stm32f1x.c:173 stm32x_wait_status_busy(): status: 0x3
Debug: 604 3522 hla_target.c:601 adapter_read_memory(): adapter_read_memory 0x4002200c 4 1
Debug: 605 3522 target.c:2628 target_read_u32(): address: 0x4002200c, value: 0x00000003
Debug: 606 3522 stm32f1x.c:173 stm32x_wait_status_busy(): status: 0x3
Debug: 607 3524 hla_target.c:601 adapter_read_memory(): adapter_read_memory 0x4002200c 4 1
Debug: 608 3524 target.c:2628 target_read_u32(): address: 0x4002200c, value: 0x00000003
Debug: 609 3524 stm32f1x.c:173 stm32x_wait_status_busy(): status: 0x3
Debug: 610 3525 hla_target.c:601 adapter_read_memory(): adapter_read_memory 0x4002200c 4 1
Debug: 611 3525 target.c:2628 target_read_u32(): address: 0x4002200c, value: 0x00000003
Debug: 612 3525 stm32f1x.c:173 stm32x_wait_status_busy(): status: 0x3
Debug: 613 3526 hla_target.c:601 adapter_read_memory(): adapter_read_memory 0x4002200c 4 1
Debug: 614 3527 target.c:2628 target_read_u32(): address: 0x4002200c, value: 0x00000003
Debug: 615 3527 stm32f1x.c:173 stm32x_wait_status_busy(): status: 0x3
Debug: 616 3528 hla_target.c:601 adapter_read_memory(): adapter_read_memory 0x4002200c 4 1
Debug: 617 3528 target.c:2628 target_read_u32(): address: 0x4002200c, value: 0x00000003
Debug: 618 3528 stm32f1x.c:173 stm32x_wait_status_busy(): status: 0x3
Debug: 619 3529 hla_target.c:601 adapter_read_memory(): adapter_read_memory 0x4002200c 4 1
Debug: 620 3529 target.c:2628 target_read_u32(): address: 0x4002200c, value: 0x00000003
Debug: 621 3529 stm32f1x.c:173 stm32x_wait_status_busy(): status: 0x3
Debug: 622 3530 hla_target.c:601 adapter_read_memory(): adapter_read_memory 0x4002200c 4 1
Debug: 623 3531 target.c:2628 target_read_u32(): address: 0x4002200c, value: 0x00000003
Debug: 624 3531 stm32f1x.c:173 stm32x_wait_status_busy(): status: 0x3
Debug: 625 3532 hla_target.c:601 adapter_read_memory(): adapter_read_memory 0x4002200c 4 1
Debug: 626 3532 target.c:2628 target_read_u32(): address: 0x4002200c, value: 0x00000003
Debug: 627 3532 stm32f1x.c:173 stm32x_wait_status_busy(): status: 0x3
Debug: 628 3533 hla_target.c:601 adapter_read_memory(): adapter_read_memory 0x4002200c 4 1
Debug: 629 3533 target.c:2628 target_read_u32(): address: 0x4002200c, value: 0x00000003
Debug: 630 3533 stm32f1x.c:173 stm32x_wait_status_busy(): status: 0x3
Debug: 631 3535 hla_target.c:601 adapter_read_memory(): adapter_read_memory 0x4002200c 4 1
Debug: 632 3535 target.c:2628 target_read_u32(): address: 0x4002200c, value: 0x00000003
Debug: 633 3535 stm32f1x.c:173 stm32x_wait_status_busy(): status: 0x3
Debug: 634 3536 hla_target.c:601 adapter_read_memory(): adapter_read_memory 0x4002200c 4 1
Debug: 635 3536 target.c:2628 target_read_u32(): address: 0x4002200c, value: 0x00000003
Debug: 636 3536 stm32f1x.c:173 stm32x_wait_status_busy(): status: 0x3
Debug: 637 3537 hla_target.c:601 adapter_read_memory(): adapter_read_memory 0x4002200c 4 1
Debug: 638 3538 target.c:2628 target_read_u32(): address: 0x4002200c, value: 0x00000020
Debug: 639 3538 stm32f1x.c:173 stm32x_wait_status_busy(): status: 0x20
Debug: 640 3538 target.c:2716 target_write_u32(): address: 0x40022010, value: 0x00000002
Debug: 641 3538 hla_target.c:616 adapter_write_memory(): adapter_write_memory 0x40022010 4 1
Debug: 642 3538 target.c:2716 target_write_u32(): address: 0x40022014, value: 0x08000800
Debug: 643 3538 hla_target.c:616 adapter_write_memory(): adapter_write_memory 0x40022014 4 1
Debug: 644 3538 target.c:2716 target_write_u32(): address: 0x40022010, value: 0x00000042
Debug: 645 3538 hla_target.c:616 adapter_write_memory(): adapter_write_memory 0x40022010 4 1
Debug: 646 3538 hla_target.c:601 adapter_read_memory(): adapter_read_memory 0x4002200c 4 1
Debug: 647 3539 target.c:2628 target_read_u32(): address: 0x4002200c, value: 0x00000023
Debug: 648 3539 stm32f1x.c:173 stm32x_wait_status_busy(): status: 0x23
Debug: 649 3540 hla_target.c:601 adapter_read_memory(): adapter_read_memory 0x4002200c 4 1
Debug: 650 3540 target.c:2628 target_read_u32(): address: 0x4002200c, value: 0x00000023
Debug: 651 3540 stm32f1x.c:173 stm32x_wait_status_busy(): status: 0x23
Debug: 652 3541 hla_target.c:601 adapter_read_memory(): adapter_read_memory 0x4002200c 4 1
Debug: 653 3541 target.c:2628 target_read_u32(): address: 0x4002200c, value: 0x00000023
Debug: 654 3541 stm32f1x.c:173 stm32x_wait_status_busy(): status: 0x23
Debug: 655 3542 hla_target.c:601 adapter_read_memory(): adapter_read_memory 0x4002200c 4 1
Debug: 656 3543 target.c:2628 target_read_u32(): address: 0x4002200c, value: 0x00000023
Debug: 657 3543 stm32f1x.c:173 stm32x_wait_status_busy(): status: 0x23
Debug: 658 3544 hla_target.c:601 adapter_read_memory(): adapter_read_memory 0x4002200c 4 1
Debug: 659 3544 target.c:2628 target_read_u32(): address: 0x4002200c, value: 0x00000023
Debug: 660 3544 stm32f1x.c:173 stm32x_wait_status_busy(): status: 0x23
Debug: 661 3545 hla_target.c:601 adapter_read_memory(): adapter_read_memory 0x4002200c 4 1
Debug: 662 3545 target.c:2628 target_read_u32(): address: 0x4002200c, value: 0x00000023
Debug: 663 3545 stm32f1x.c:173 stm32x_wait_status_busy(): status: 0x23
Debug: 664 3546 hla_target.c:601 adapter_read_memory(): adapter_read_memory 0x4002200c 4 1
Debug: 665 3547 target.c:2628 target_read_u32(): address: 0x4002200c, value: 0x00000023
Debug: 666 3547 stm32f1x.c:173 stm32x_wait_status_busy(): status: 0x23
Debug: 667 3548 hla_target.c:601 adapter_read_memory(): adapter_read_memory 0x4002200c 4 1
Debug: 668 3548 target.c:2628 target_read_u32(): address: 0x4002200c, value: 0x00000023
Debug: 669 3548 stm32f1x.c:173 stm32x_wait_status_busy(): status: 0x23
Debug: 670 3549 hla_target.c:601 adapter_read_memory(): adapter_read_memory 0x4002200c 4 1
Debug: 671 3549 target.c:2628 target_read_u32(): address: 0x4002200c, value: 0x00000023
Debug: 672 3549 stm32f1x.c:173 stm32x_wait_status_busy(): status: 0x23
Debug: 673 3551 hla_target.c:601 adapter_read_memory(): adapter_read_memory 0x4002200c 4 1
Debug: 674 3551 target.c:2628 target_read_u32(): address: 0x4002200c, value: 0x00000023
Debug: 675 3551 stm32f1x.c:173 stm32x_wait_status_busy(): status: 0x23
Debug: 676 3552 hla_target.c:601 adapter_read_memory(): adapter_read_memory 0x4002200c 4 1
Debug: 677 3552 target.c:2628 target_read_u32(): address: 0x4002200c, value: 0x00000023
Debug: 678 3552 stm32f1x.c:173 stm32x_wait_status_busy(): status: 0x23
Debug: 679 3553 hla_target.c:601 adapter_read_memory(): adapter_read_memory 0x4002200c 4 1
Debug: 680 3554 target.c:2628 target_read_u32(): address: 0x4002200c, value: 0x00000023
Debug: 681 3554 stm32f1x.c:173 stm32x_wait_status_busy(): status: 0x23
Debug: 682 3555 hla_target.c:601 adapter_read_memory(): adapter_read_memory 0x4002200c 4 1
Debug: 683 3555 target.c:2628 target_read_u32(): address: 0x4002200c, value: 0x00000023
Debug: 684 3555 stm32f1x.c:173 stm32x_wait_status_busy(): status: 0x23
Debug: 685 3556 hla_target.c:601 adapter_read_memory(): adapter_read_memory 0x4002200c 4 1
Debug: 686 3556 target.c:2628 target_read_u32(): address: 0x4002200c, value: 0x00000023
Debug: 687 3556 stm32f1x.c:173 stm32x_wait_status_busy(): status: 0x23
Debug: 688 3557 hla_target.c:601 adapter_read_memory(): adapter_read_memory 0x4002200c 4 1
Debug: 689 3558 target.c:2628 target_read_u32(): address: 0x4002200c, value: 0x00000023
Debug: 690 3558 stm32f1x.c:173 stm32x_wait_status_busy(): status: 0x23
Debug: 691 3559 hla_target.c:601 adapter_read_memory(): adapter_read_memory 0x4002200c 4 1
Debug: 692 3559 target.c:2628 target_read_u32(): address: 0x4002200c, value: 0x00000023
Debug: 693 3559 stm32f1x.c:173 stm32x_wait_status_busy(): status: 0x23
Debug: 694 3560 hla_target.c:601 adapter_read_memory(): adapter_read_memory 0x4002200c 4 1
Debug: 695 3560 target.c:2628 target_read_u32(): address: 0x4002200c, value: 0x00000023
Debug: 696 3560 stm32f1x.c:173 stm32x_wait_status_busy(): status: 0x23
Debug: 697 3562 hla_target.c:601 adapter_read_memory(): adapter_read_memory 0x4002200c 4 1
Debug: 698 3562 target.c:2628 target_read_u32(): address: 0x4002200c, value: 0x00000020
Debug: 699 3562 stm32f1x.c:173 stm32x_wait_status_busy(): status: 0x20
Debug: 700 3562 target.c:2716 target_write_u32(): address: 0x40022010, value: 0x00000002
Debug: 701 3562 hla_target.c:616 adapter_write_memory(): adapter_write_memory 0x40022010 4 1
Debug: 702 3562 target.c:2716 target_write_u32(): address: 0x40022014, value: 0x08001000
Debug: 703 3562 hla_target.c:616 adapter_write_memory(): adapter_write_memory 0x40022014 4 1
Debug: 704 3562 target.c:2716 target_write_u32(): address: 0x40022010, value: 0x00000042
Debug: 705 3562 hla_target.c:616 adapter_write_memory(): adapter_write_memory 0x40022010 4 1
Debug: 706 3563 hla_target.c:601 adapter_read_memory(): adapter_read_memory 0x4002200c 4 1
Debug: 707 3563 target.c:2628 target_read_u32(): address: 0x4002200c, value: 0x00000023
Debug: 708 3563 stm32f1x.c:173 stm32x_wait_status_busy(): status: 0x23
Debug: 709 3564 hla_target.c:601 adapter_read_memory(): adapter_read_memory 0x4002200c 4 1
Debug: 710 3564 target.c:2628 target_read_u32(): address: 0x4002200c, value: 0x00000023
Debug: 711 3564 stm32f1x.c:173 stm32x_wait_status_busy(): status: 0x23
Debug: 712 3565 hla_target.c:601 adapter_read_memory(): adapter_read_memory 0x4002200c 4 1
Debug: 713 3566 target.c:2628 target_read_u32(): address: 0x4002200c, value: 0x00000023
Debug: 714 3566 stm32f1x.c:173 stm32x_wait_status_busy(): status: 0x23
Debug: 715 3567 hla_target.c:601 adapter_read_memory(): adapter_read_memory 0x4002200c 4 1
Debug: 716 3567 target.c:2628 target_read_u32(): address: 0x4002200c, value: 0x00000023
Debug: 717 3567 stm32f1x.c:173 stm32x_wait_status_busy(): status: 0x23
Debug: 718 3568 hla_target.c:601 adapter_read_memory(): adapter_read_memory 0x4002200c 4 1
Debug: 719 3569 target.c:2628 target_read_u32(): address: 0x4002200c, value: 0x00000023
Debug: 720 3569 stm32f1x.c:173 stm32x_wait_status_busy(): status: 0x23
Debug: 721 3570 hla_target.c:601 adapter_read_memory(): adapter_read_memory 0x4002200c 4 1
Debug: 722 3570 target.c:2628 target_read_u32(): address: 0x4002200c, value: 0x00000023
Debug: 723 3570 stm32f1x.c:173 stm32x_wait_status_busy(): status: 0x23
Debug: 724 3571 hla_target.c:601 adapter_read_memory(): adapter_read_memory 0x4002200c 4 1
Debug: 725 3571 target.c:2628 target_read_u32(): address: 0x4002200c, value: 0x00000023
Debug: 726 3571 stm32f1x.c:173 stm32x_wait_status_busy(): status: 0x23
Debug: 727 3572 hla_target.c:601 adapter_read_memory(): adapter_read_memory 0x4002200c 4 1
Debug: 728 3573 target.c:2628 target_read_u32(): address: 0x4002200c, value: 0x00000023
Debug: 729 3573 stm32f1x.c:173 stm32x_wait_status_busy(): status: 0x23
Debug: 730 3574 hla_target.c:601 adapter_read_memory(): adapter_read_memory 0x4002200c 4 1
Debug: 731 3574 target.c:2628 target_read_u32(): address: 0x4002200c, value: 0x00000023
Debug: 732 3574 stm32f1x.c:173 stm32x_wait_status_busy(): status: 0x23
Debug: 733 3575 hla_target.c:601 adapter_read_memory(): adapter_read_memory 0x4002200c 4 1
Debug: 734 3575 target.c:2628 target_read_u32(): address: 0x4002200c, value: 0x00000023
Debug: 735 3575 stm32f1x.c:173 stm32x_wait_status_busy(): status: 0x23
Debug: 736 3576 hla_target.c:601 adapter_read_memory(): adapter_read_memory 0x4002200c 4 1
Debug: 737 3577 target.c:2628 target_read_u32(): address: 0x4002200c, value: 0x00000023
Debug: 738 3577 stm32f1x.c:173 stm32x_wait_status_busy(): status: 0x23
Debug: 739 3578 hla_target.c:601 adapter_read_memory(): adapter_read_memory 0x4002200c 4 1
Debug: 740 3578 target.c:2628 target_read_u32(): address: 0x4002200c, value: 0x00000023
Debug: 741 3578 stm32f1x.c:173 stm32x_wait_status_busy(): status: 0x23
Debug: 742 3579 hla_target.c:601 adapter_read_memory(): adapter_read_memory 0x4002200c 4 1
Debug: 743 3579 target.c:2628 target_read_u32(): address: 0x4002200c, value: 0x00000023
Debug: 744 3579 stm32f1x.c:173 stm32x_wait_status_busy(): status: 0x23
Debug: 745 3581 hla_target.c:601 adapter_read_memory(): adapter_read_memory 0x4002200c 4 1
Debug: 746 3581 target.c:2628 target_read_u32(): address: 0x4002200c, value: 0x00000023
Debug: 747 3581 stm32f1x.c:173 stm32x_wait_status_busy(): status: 0x23
Debug: 748 3582 hla_target.c:601 adapter_read_memory(): adapter_read_memory 0x4002200c 4 1
Debug: 749 3582 target.c:2628 target_read_u32(): address: 0x4002200c, value: 0x00000023
Debug: 750 3582 stm32f1x.c:173 stm32x_wait_status_busy(): status: 0x23
Debug: 751 3583 hla_target.c:601 adapter_read_memory(): adapter_read_memory 0x4002200c 4 1
Debug: 752 3584 target.c:2628 target_read_u32(): address: 0x4002200c, value: 0x00000023
Debug: 753 3584 stm32f1x.c:173 stm32x_wait_status_busy(): status: 0x23
Debug: 754 3585 hla_target.c:601 adapter_read_memory(): adapter_read_memory 0x4002200c 4 1
Debug: 755 3585 target.c:2628 target_read_u32(): address: 0x4002200c, value: 0x00000020
Debug: 756 3585 stm32f1x.c:173 stm32x_wait_status_busy(): status: 0x20
Debug: 757 3585 target.c:2716 target_write_u32(): address: 0x40022010, value: 0x00000002
Debug: 758 3585 hla_target.c:616 adapter_write_memory(): adapter_write_memory 0x40022010 4 1
Debug: 759 3585 target.c:2716 target_write_u32(): address: 0x40022014, value: 0x08001800
Debug: 760 3585 hla_target.c:616 adapter_write_memory(): adapter_write_memory 0x40022014 4 1
Debug: 761 3585 target.c:2716 target_write_u32(): address: 0x40022010, value: 0x00000042
Debug: 762 3586 hla_target.c:616 adapter_write_memory(): adapter_write_memory 0x40022010 4 1
Debug: 763 3586 hla_target.c:601 adapter_read_memory(): adapter_read_memory 0x4002200c 4 1
Debug: 764 3586 target.c:2628 target_read_u32(): address: 0x4002200c, value: 0x00000023
Debug: 765 3586 stm32f1x.c:173 stm32x_wait_status_busy(): status: 0x23
Debug: 766 3587 hla_target.c:601 adapter_read_memory(): adapter_read_memory 0x4002200c 4 1
Debug: 767 3587 target.c:2628 target_read_u32(): address: 0x4002200c, value: 0x00000023
Debug: 768 3587 stm32f1x.c:173 stm32x_wait_status_busy(): status: 0x23
Debug: 769 3588 hla_target.c:601 adapter_read_memory(): adapter_read_memory 0x4002200c 4 1
Debug: 770 3589 target.c:2628 target_read_u32(): address: 0x4002200c, value: 0x00000023
Debug: 771 3589 stm32f1x.c:173 stm32x_wait_status_busy(): status: 0x23
Debug: 772 3590 hla_target.c:601 adapter_read_memory(): adapter_read_memory 0x4002200c 4 1
Debug: 773 3590 target.c:2628 target_read_u32(): address: 0x4002200c, value: 0x00000023
Debug: 774 3590 stm32f1x.c:173 stm32x_wait_status_busy(): status: 0x23
Debug: 775 3591 hla_target.c:601 adapter_read_memory(): adapter_read_memory 0x4002200c 4 1
Debug: 776 3592 target.c:2628 target_read_u32(): address: 0x4002200c, value: 0x00000023
Debug: 777 3592 stm32f1x.c:173 stm32x_wait_status_busy(): status: 0x23
Debug: 778 3593 hla_target.c:601 adapter_read_memory(): adapter_read_memory 0x4002200c 4 1
Debug: 779 3593 target.c:2628 target_read_u32(): address: 0x4002200c, value: 0x00000023
Debug: 780 3593 stm32f1x.c:173 stm32x_wait_status_busy(): status: 0x23
Debug: 781 3594 hla_target.c:601 adapter_read_memory(): adapter_read_memory 0x4002200c 4 1
Debug: 782 3594 target.c:2628 target_read_u32(): address: 0x4002200c, value: 0x00000023
Debug: 783 3594 stm32f1x.c:173 stm32x_wait_status_busy(): status: 0x23
Debug: 784 3595 hla_target.c:601 adapter_read_memory(): adapter_read_memory 0x4002200c 4 1
Debug: 785 3596 target.c:2628 target_read_u32(): address: 0x4002200c, value: 0x00000023
Debug: 786 3596 stm32f1x.c:173 stm32x_wait_status_busy(): status: 0x23
Debug: 787 3597 hla_target.c:601 adapter_read_memory(): adapter_read_memory 0x4002200c 4 1
Debug: 788 3597 target.c:2628 target_read_u32(): address: 0x4002200c, value: 0x00000023
Debug: 789 3597 stm32f1x.c:173 stm32x_wait_status_busy(): status: 0x23
Debug: 790 3598 hla_target.c:601 adapter_read_memory(): adapter_read_memory 0x4002200c 4 1
Debug: 791 3598 target.c:2628 target_read_u32(): address: 0x4002200c, value: 0x00000023
Debug: 792 3598 stm32f1x.c:173 stm32x_wait_status_busy(): status: 0x23
Debug: 793 3600 hla_target.c:601 adapter_read_memory(): adapter_read_memory 0x4002200c 4 1
Debug: 794 3600 target.c:2628 target_read_u32(): address: 0x4002200c, value: 0x00000023
Debug: 795 3600 stm32f1x.c:173 stm32x_wait_status_busy(): status: 0x23
Debug: 796 3601 hla_target.c:601 adapter_read_memory(): adapter_read_memory 0x4002200c 4 1
Debug: 797 3601 target.c:2628 target_read_u32(): address: 0x4002200c, value: 0x00000023
Debug: 798 3601 stm32f1x.c:173 stm32x_wait_status_busy(): status: 0x23
Debug: 799 3602 hla_target.c:601 adapter_read_memory(): adapter_read_memory 0x4002200c 4 1
Debug: 800 3603 target.c:2628 target_read_u32(): address: 0x4002200c, value: 0x00000023
Debug: 801 3603 stm32f1x.c:173 stm32x_wait_status_busy(): status: 0x23
Debug: 802 3604 hla_target.c:601 adapter_read_memory(): adapter_read_memory 0x4002200c 4 1
Debug: 803 3604 target.c:2628 target_read_u32(): address: 0x4002200c, value: 0x00000023
Debug: 804 3604 stm32f1x.c:173 stm32x_wait_status_busy(): status: 0x23
Debug: 805 3605 hla_target.c:601 adapter_read_memory(): adapter_read_memory 0x4002200c 4 1
Debug: 806 3605 target.c:2628 target_read_u32(): address: 0x4002200c, value: 0x00000023
Debug: 807 3605 stm32f1x.c:173 stm32x_wait_status_busy(): status: 0x23
Debug: 808 3606 hla_target.c:601 adapter_read_memory(): adapter_read_memory 0x4002200c 4 1
Debug: 809 3607 target.c:2628 target_read_u32(): address: 0x4002200c, value: 0x00000023
Debug: 810 3607 stm32f1x.c:173 stm32x_wait_status_busy(): status: 0x23
Debug: 811 3608 hla_target.c:601 adapter_read_memory(): adapter_read_memory 0x4002200c 4 1
Debug: 812 3608 target.c:2628 target_read_u32(): address: 0x4002200c, value: 0x00000020
Debug: 813 3608 stm32f1x.c:173 stm32x_wait_status_busy(): status: 0x20
Debug: 814 3608 target.c:2716 target_write_u32(): address: 0x40022010, value: 0x00000002
Debug: 815 3608 hla_target.c:616 adapter_write_memory(): adapter_write_memory 0x40022010 4 1
Debug: 816 3608 target.c:2716 target_write_u32(): address: 0x40022014, value: 0x08002000
Debug: 817 3608 hla_target.c:616 adapter_write_memory(): adapter_write_memory 0x40022014 4 1
Debug: 818 3609 target.c:2716 target_write_u32(): address: 0x40022010, value: 0x00000042
Debug: 819 3609 hla_target.c:616 adapter_write_memory(): adapter_write_memory 0x40022010 4 1
Debug: 820 3609 hla_target.c:601 adapter_read_memory(): adapter_read_memory 0x4002200c 4 1
Debug: 821 3609 target.c:2628 target_read_u32(): address: 0x4002200c, value: 0x00000023
Debug: 822 3609 stm32f1x.c:173 stm32x_wait_status_busy(): status: 0x23
Debug: 823 3610 hla_target.c:601 adapter_read_memory(): adapter_read_memory 0x4002200c 4 1
